LVs	V(G)/Vlvs	SE	zscore	pval	LV_AUC	pwys
101	0.980547	0.372452	2.6326801842922	0.00423570374515492	0.541060894953227	1.REACTOME_CYTOKINE_SIGNALING_IN_IMMUNE_SYSTEM,2.REACTOME_METABOLISM_OF_MRNA,
110	0.885394	0.37757	2.34497973885637	0.00951405679441431	0.505075206483657	1.REACTOME_CLASS_I_MHC_MEDIATED_ANTIGEN_PROCESSING_PRESENTATION,2.REACTOME_FATTY_ACID_TRIACYLGLYCEROL_AND_KETONE_BODY_METABOLISM,3.REACTOME_METABOLISM_OF_LIPIDS_AND_LIPOPROTEINS,
102	0.877345	0.366531	2.39364473946269	0.00834094896992554	0.518431801370083	1.REACTOME_GENERIC_TRANSCRIPTION_PATHWAY,
19	0.78913	0.379895	2.07723186670001	0.0188900820168163	0.699607924336744	1.REACTOME_MRNA_PROCESSING,2.REACTOME_MRNA_SPLICING,3.REACTOME_TRANSPORT_OF_MATURE_TRANSCRIPT_TO_CYTOPLASM,
18	0.728725	0.371012	1.96415479822755	0.0247560714837822	0.528320702034304	1.KEGG_SPLICEOSOME,
44	0.599649	0.340135	1.76297352521793	0.0389524774905273	0.561484389264196	1.KEGG_B_CELL_RECEPTOR_SIGNALING_PATHWAY,2.PID_BCR_5PATHWAY,
45	0.588923	0.357885	1.64556491610434	0.0499266836411181	0.697038327526132	1.REACTOME_METABOLISM_OF_PROTEINS,2.REACTOME_HIV_INFECTION,3.KEGG_RIBOSOME,
95	0.579506	0.353289	1.64031713413098	0.0504696224352942	0	no-related-pathways
103	0.568527	0.36786	1.54549828739194	0.0611128914159202	0.562921491934453	1.REACTOME_METABOLISM_OF_PROTEINS,2.REACTOME_METABOLISM_OF_MRNA,3.KEGG_PARKINSONS_DISEASE,
3	0.531764	0.37192	1.42978059797806	0.0763899996647076	0.66352573766961	1.REACTOME_PRE_NOTCH_EXPRESSION_AND_PROCESSING,2.REACTOME_AXON_GUIDANCE,3.REACTOME_MRNA_PROCESSING,
43	0.520024	0.353692	1.47027357135587	0.0707438379375587	0	no-related-pathways
50	0.49859	0.357822	1.39340230617458	0.0817490843720432	0	no-related-pathways
49	0.481861	0.35649	1.35168167410026	0.0882385850037934	0	no-related-pathways
80	0.475466	0.354755	1.34026581725416	0.0900794702212021	0.576811984363345	1.KEGG_CYTOKINE_CYTOKINE_RECEPTOR_INTERACTION,
54	0.456097	0.371735	1.22694123501957	0.10992233936902	0	no-related-pathways
65	0.392036	0.382798	1.02413283245994	0.152886269271463	0.58754441373865	1.REACTOME_METABOLISM_OF_PROTEINS,2.REACTOME_MRNA_PROCESSING,
77	0.372646	0.353695	1.05358006191775	0.146037610735906	0.54469720562838	1.REACTOME_TRANSCRIPTION,
8	0.365019	0.362567	1.00676288796278	0.157024366454743	0	no-related-pathways
68	0.364081	0.357057	1.01967192913176	0.153942039474718	0	no-related-pathways
4	0.347708	0.342127	1.01631265582664	0.154740261895519	0.939083431257344	1.PID_IL8CXCR2_PATHWAY,2.REACTOME_HIV_INFECTION,3.REACTOME_NGF_SIGNALLING_VIA_TRKA_FROM_THE_PLASMA_MEMBRANE,
99	0.307793	0.385241	0.79896220807235	0.212156162919428	0	no-related-pathways
85	0.304005	0.360914	0.84231977701059	0.19980449192971	0.550872505635802	1.KEGG_APOPTOSIS,2.MIPS_SPLICEOSOME,3.REACTOME_ANTIGEN_PROCESSING_UBIQUITINATION_PROTEASOME_DEGRADATION,
15	0.275779	0.343487	0.802880458357958	0.211021915975853	0.713347164591978	1.BIOCARTA_MAPK_PATHWAY,2.REACTOME_CYTOKINE_SIGNALING_IN_IMMUNE_SYSTEM,3.REACTOME_MRNA_PROCESSING,
72	0.265207	0.36221	0.732191270257585	0.232025915942209	0	no-related-pathways
67	0.249615	0.377014	0.662084166635722	0.253958641247993	0	no-related-pathways
17	0.241157	0.378628	0.636923312591779	0.262087398387251	0	no-related-pathways
42	0.226887	0.330125	0.687276031806134	0.245954399864916	0.603053830227743	1.REACTOME_SIGNALING_BY_NOTCH,2.REACTOME_CLASS_I_MHC_MEDIATED_ANTIGEN_PROCESSING_PRESENTATION,3.KEGG_RNA_DEGRADATION,
39	0.225633	0.34426	0.655414512287225	0.256100455193901	0.681254608515171	1.ST_T_CELL_SIGNAL_TRANSDUCTION,2.PID_IL12_2PATHWAY,3.ST_B_CELL_ANTIGEN_RECEPTOR,
20	0.22221	0.34318	0.647502768226587	0.258653301744938	0.879082523061581	1.REACTOME_G1_S_TRANSITION,2.REACTOME_E2F_MEDIATED_REGULATION_OF_DNA_REPLICATION,3.KEGG_P53_SIGNALING_PATHWAY,
93	0.206264	0.34171	0.603622955137397	0.273047173801834	0	no-related-pathways
71	0.200844	0.354103	0.567190902082162	0.28529224427282	0	no-related-pathways
12	0.197485	0.371688	0.531319278534685	0.297598774100828	0	no-related-pathways
107	0.194812	0.348553	0.558916434516415	0.288109376363715	0.955536701860231	1.REACTOME_METABOLISM_OF_PROTEINS,2.REACTOME_DIABETES_PATHWAYS,3.REACTOME_CLASS_I_MHC_MEDIATED_ANTIGEN_PROCESSING_PRESENTATION,
92	0.194055	0.360497	0.538298515660324	0.295185487976018	0.519648367826505	1.REACTOME_TRANSCRIPTION,
36	0.147244	0.361204	0.407647755838806	0.341766149165365	0	no-related-pathways
94	0.145576	0.334828	0.434778453414888	0.331861623034148	0.530489958407198	1.REACTOME_GENERIC_TRANSCRIPTION_PATHWAY,2.REACTOME_TRANSPORT_OF_MATURE_TRANSCRIPT_TO_CYTOPLASM,3.MIPS_SPLICEOSOME,
73	0.140614	0.352948	0.398398630959801	0.345168183456072	0	no-related-pathways
91	0.127308	0.328079	0.388040685322742	0.348992962722631	0	no-related-pathways
62	0.123942	0.346341	0.357861183053696	0.360223600474423	0.60693392450274	1.KEGG_FATTY_ACID_METABOLISM,2.REACTOME_FATTY_ACID_TRIACYLGLYCEROL_AND_KETONE_BODY_METABOLISM,
75	0.121906	0.314663	0.387417649993803	0.349223519631308	0.570866358432409	1.PID_PDGFRBPATHWAY,2.KEGG_ENDOCYTOSIS,
46	0.108918	0.317299	0.343266130684307	0.365699129165696	0	no-related-pathways
61	0.093692	0.358193	0.26156848402956	0.396827072173062	0.615615978111074	1.REACTOME_HIV_INFECTION,2.REACTOME_METABOLISM_OF_MRNA,3.MIPS_SPLICEOSOME,
23	0.087432	0.364714	0.239727567354146	0.405270731173256	0.549412559783739	1.REACTOME_GLYCOSAMINOGLYCAN_METABOLISM,
51	0.087041	0.340201	0.255851687678755	0.399032680402541	0.675132754527417	1.REACTOME_METABOLISM_OF_PROTEINS,2.REACTOME_HIV_INFECTION,3.KEGG_OXIDATIVE_PHOSPHORYLATION,
55	0.086354	0.321302	0.26876272167618	0.39405614095877	0.535710716546187	1.KEGG_LYSOSOME,
41	0.070265	0.323685	0.217078332329271	0.414073649824434	0.452244212980409	1.REACTOME_AXON_GUIDANCE,
76	0.066658	0.321854	0.207106327713808	0.417963410217381	0.610002764467379	1.REACTOME_NGF_SIGNALLING_VIA_TRKA_FROM_THE_PLASMA_MEMBRANE,2.REACTOME_SIGNALING_BY_EGFR_IN_CANCER,
1	0.059201	0.340053	0.174093450138655	0.430896010315261	0.644515904194652	1.REACTOME_METABOLISM_OF_PROTEINS,2.REACTOME_CYTOKINE_SIGNALING_IN_IMMUNE_SYSTEM,3.WNT_SIGNALING,
108	0.054511	0.324166	0.168157672303696	0.433229619653746	0.948298449258142	1.REACTOME_METABOLISM_OF_PROTEINS,2.REACTOME_MITOCHONDRIAL_PROTEIN_IMPORT,3.REACTOME_METABOLISM_OF_AMINO_ACIDS_AND_DERIVATIVES,
38	0.016935	0.356449	0.0475103030167008	0.481053259494964	0.665157986443127	1.PID_IL12_2PATHWAY,2.REACTOME_GPCR_LIGAND_BINDING,3.KEGG_NATURAL_KILLER_CELL_MEDIATED_CYTOTOXICITY,
88	0.016161	0.35007	0.046165052703745	0.481589348332244	0.607104345068189	1.KEGG_CYTOKINE_CYTOKINE_RECEPTOR_INTERACTION,2.REACTOME_GPCR_LIGAND_BINDING,
53	0.010915	0.331895	0.0328869070037211	0.486882386923321	0	no-related-pathways
47	0.01067	0.31302	0.0340872787681298	0.486403776331725	0.781524780175859	1.REACTOME_MRNA_PROCESSING,2.PID_HES_HEYPATHWAY,3.BIOCARTA_CARM_ER_PATHWAY,
106	0.010258	0.277871	0.0369164108525179	0.485275827349104	0.785431716546268	1.REACTOME_METABOLISM_OF_PROTEINS,2.REACTOME_HIV_INFECTION,3.KEGG_OXIDATIVE_PHOSPHORYLATION,
5	0.008621	0.330634	0.026074148454182	0.489599098297797	0.498919800237401	1.REACTOME_METABOLISM_OF_LIPIDS_AND_LIPOPROTEINS,
16	0.002223	0.340691	0.00652497424352272	0.497396930366815	0.868609287054409	1.REACTOME_NEGATIVE_REGULATORS_OF_RIG_I_MDA5_SIGNALING,2.REACTOME_CYTOKINE_SIGNALING_IN_IMMUNE_SYSTEM,3.REACTOME_INTERFERON_SIGNALING,
2	1e-06	0.313366	3.19115666664539e-06	0.499998726912682	0.589657320872274	1.REACTOME_MRNA_SPLICING,2.KEGG_PATHOGENIC_ESCHERICHIA_COLI_INFECTION,3.REACTOME_CLASS_I_MHC_MEDIATED_ANTIGEN_PROCESSING_PRESENTATION,
6	1e-06	0.369223	2.7083903223797e-06	0.499998919508589	1	1.REACTOME_METABOLISM_OF_PROTEINS,2.REACTOME_3_UTR_MEDIATED_TRANSLATIONAL_REGULATION,3.REACTOME_PEPTIDE_CHAIN_ELONGATION,
7	1e-06	0.348162	2.87222614759796e-06	0.499998854147551	0.704322707108222	1.REACTOME_METABOLISM_OF_PROTEINS,2.REACTOME_3_UTR_MEDIATED_TRANSLATIONAL_REGULATION,3.PID_TCR_PATHWAY,
9	1e-06	0.370998	2.69543232038987e-06	0.499998924678083	0.61840270862378	1.KEGG_FC_GAMMA_R_MEDIATED_PHAGOCYTOSIS,2.PID_IL6_7PATHWAY,3.REACTOME_CYTOKINE_SIGNALING_IN_IMMUNE_SYSTEM,
10	1e-06	0.355627	2.8119349768156e-06	0.499998878200248	0.692290809327846	1.KEGG_CYTOKINE_CYTOKINE_RECEPTOR_INTERACTION,2.PID_IL6_7PATHWAY,3.REACTOME_CYTOKINE_SIGNALING_IN_IMMUNE_SYSTEM,
11	1e-06	0.362736	2.7568259009307e-06	0.499998900185588	0.604136376087827	1.PID_TXA2PATHWAY,2.REACTOME_CLASS_A1_RHODOPSIN_LIKE_RECEPTORS,3.PID_P53DOWNSTREAMPATHWAY,
13	1e-06	0.35979	2.7793990939159e-06	0.499998891180187	0.587260216847373	1.REACTOME_SIGNALING_BY_EGFR_IN_CANCER,2.REACTOME_CLASS_I_MHC_MEDIATED_ANTIGEN_PROCESSING_PRESENTATION,3.REACTOME_METABOLISM_OF_LIPIDS_AND_LIPOPROTEINS,
14	1e-06	0.365215	2.73811316621716e-06	0.49999890765089	0.991383895330284	1.REACTOME_METABOLISM_OF_PROTEINS,2.REACTOME_SCFSKP2_MEDIATED_DEGRADATION_OF_P27_P21,3.REACTOME_HIV_INFECTION,
21	1e-06	0.36176	2.76426360017691e-06	0.499998897218376	0.624977322663226	1.REACTOME_NGF_SIGNALLING_VIA_TRKA_FROM_THE_PLASMA_MEMBRANE,2.REACTOME_SIGNALING_BY_EGFR_IN_CANCER,3.REACTOME_CLASS_I_MHC_MEDIATED_ANTIGEN_PROCESSING_PRESENTATION,
22	1e-06	0.379537	2.63478923003554e-06	0.499998948871176	0.752083333333333	1.REACTOME_METABOLISM_OF_PROTEINS,2.REACTOME_DESTABILIZATION_OF_MRNA_BY_AUF1_HNRNP_D0,3.REACTOME_HIV_INFECTION,
24	1e-06	0.36769	2.71968234110256e-06	0.499998915003725	0.999228735125606	1.REACTOME_METABOLISM_OF_PROTEINS,2.REACTOME_HIV_INFECTION,3.KEGG_OXIDATIVE_PHOSPHORYLATION,
25	1e-06	0.374232	2.67213920776417e-06	0.499998933970691	0.759746588693957	1.REACTOME_HIV_INFECTION,2.REACTOME_TRANSPORT_OF_MATURE_MRNA_DERIVED_FROM_AN_INTRONLESS_TRANSCRIPT,3.REACTOME_MRNA_PROCESSING,
26	1e-06	0.331975	3.01227502070939e-06	0.499998798276134	0.571168069370059	1.REACTOME_HIV_INFECTION,2.MIPS_C_COMPLEX_SPLICEOSOME,3.REACTOME_MEMBRANE_TRAFFICKING,
27	1e-06	0.351881	2.84186983667774e-06	0.499998866257967	0	no-related-pathways
28	1e-06	0.358898	2.78630697301183e-06	0.499998888424342	0.602398589065256	1.REACTOME_METABOLISM_OF_PROTEINS,2.REACTOME_HIV_INFECTION,3.REACTOME_NGF_SIGNALLING_VIA_TRKA_FROM_THE_PLASMA_MEMBRANE,
29	1e-06	0.309333	3.23276210426951e-06	0.499998710314514	0	no-related-pathways
30	1e-06	0.343909	2.90774594442134e-06	0.499998839977202	0.73022845908752	1.REACTOME_METABOLISM_OF_PROTEINS,2.REACTOME_DESTABILIZATION_OF_MRNA_BY_AUF1_HNRNP_D0,3.REACTOME_MRNA_PROCESSING,
31	1e-06	0.292519	3.41858135710843e-06	0.499998636183358	0.719913251764097	1.REACTOME_3_UTR_MEDIATED_TRANSLATIONAL_REGULATION,2.REACTOME_MRNA_SPLICING,3.REACTOME_METABOLISM_OF_MRNA,
32	1e-06	0.36323	2.75307656305922e-06	0.499998901681358	0.526462639765648	1.REACTOME_GPCR_LIGAND_BINDING,
33	1e-06	0.352352	2.8380710198892e-06	0.499998867773475	0.509132330755151	1.REACTOME_CYTOKINE_SIGNALING_IN_IMMUNE_SYSTEM,2.REACTOME_INTERFERON_SIGNALING,
34	1e-06	0.358927	2.78608184951257e-06	0.499998888514154	0	no-related-pathways
35	1e-06	0.328196	3.04695974356787e-06	0.499998784438932	0.80639151149576	1.REACTOME_METABOLISM_OF_PROTEINS,2.MIPS_NOP56P_ASSOCIATED_PRE_RRNA_COMPLEX,3.REACTOME_TCA_CYCLE_AND_RESPIRATORY_ELECTRON_TRANSPORT,
37	1e-06	0.330504	3.02568198872026e-06	0.499998792927528	0.659346607384496	1.KEGG_CYTOKINE_CYTOKINE_RECEPTOR_INTERACTION,2.REACTOME_SLC_MEDIATED_TRANSMEMBRANE_TRANSPORT,3.PID_AMB2_NEUTROPHILS_PATHWAY,
40	1e-06	0.369941	2.7031337429482e-06	0.49999892160566	0.647224161369732	1.REACTOME_METABOLISM_OF_PROTEINS,2.REACTOME_PEPTIDE_CHAIN_ELONGATION,3.KEGG_OXIDATIVE_PHOSPHORYLATION,
48	1e-06	0.344772	2.90046755536993e-06	0.499998842880859	0.785776846915461	1.KEGG_CYTOKINE_CYTOKINE_RECEPTOR_INTERACTION,2.PID_IL2_1PATHWAY,3.KEGG_JAK_STAT_SIGNALING_PATHWAY,
52	1e-06	0.338023	2.95837857187233e-06	0.499998819777706	0.634327929170978	1.REACTOME_METABOLISM_OF_PROTEINS,2.REACTOME_HIV_INFECTION,3.REACTOME_CYTOKINE_SIGNALING_IN_IMMUNE_SYSTEM,
56	1e-06	0.364386	2.74434253785821e-06	0.49999890516573	0.548038967611336	1.REACTOME_NGF_SIGNALLING_VIA_TRKA_FROM_THE_PLASMA_MEMBRANE,2.PID_TRKRPATHWAY,3.REACTOME_CLASS_I_MHC_MEDIATED_ANTIGEN_PROCESSING_PRESENTATION,
57	1e-06	0.357328	2.79854923207809e-06	0.499998883540388	0.5400268765598	1.REACTOME_METABOLISM_OF_LIPIDS_AND_LIPOPROTEINS,
58	1e-06	0.332741	3.00534049005082e-06	0.499998801042612	0	no-related-pathways
59	1e-06	0.352386	2.83779718831055e-06	0.499998867882718	0	no-related-pathways
60	1e-06	0.376976	2.65268876533254e-06	0.499998941730295	0.94013671875	1.KEGG_CYTOKINE_CYTOKINE_RECEPTOR_INTERACTION,2.PID_TCR_PATHWAY,3.KEGG_CELL_ADHESION_MOLECULES_CAMS,
63	1e-06	0.368949	2.71040170863724e-06	0.499998918706162	0.797121538609976	1.REACTOME_GENERIC_TRANSCRIPTION_PATHWAY,
64	1e-06	0.363335	2.75228095283967e-06	0.49999890199876	0	no-related-pathways
66	1e-06	0.350452	2.8534578201865e-06	0.49999886163503	0.647616710454139	1.KEGG_NATURAL_KILLER_CELL_MEDIATED_CYTOTOXICITY,
69	1e-06	0.358204	2.79170528525645e-06	0.499998886270727	0.443889071891306	1.REACTOME_METABOLISM_OF_MRNA,
70	1e-06	0.325531	3.07190405829245e-06	0.49999877448759	0.993761954442706	1.REACTOME_ACTIVATION_OF_NF_KAPPAB_IN_B_CELLS,2.KEGG_PROTEASOME,3.REACTOME_CYTOKINE_SIGNALING_IN_IMMUNE_SYSTEM,
74	1e-06	0.359446	2.78205905754967e-06	0.499998890119015	0.450715595150034	1.REACTOME_GENERIC_TRANSCRIPTION_PATHWAY,
78	1e-06	0.326431	3.06343453899905e-06	0.499998777866439	0.566715981088991	1.REACTOME_GENERIC_TRANSCRIPTION_PATHWAY,
79	1e-06	0.34777	2.87546366851655e-06	0.499998852855967	0	no-related-pathways
81	1e-06	0.355947	2.80940701846061e-06	0.499998879208758	0.499344105897084	1.REACTOME_SLC_MEDIATED_TRANSMEMBRANE_TRANSPORT,
82	1e-06	0.327698	3.0515901836447e-06	0.499998782591653	0.594080511206706	1.REACTOME_MRNA_SPLICING,
83	1e-06	0.361193	2.76860293527283e-06	0.499998895487232	0	no-related-pathways
84	1e-06	0.34462	2.90174685160467e-06	0.499998842370494	0.963353433184205	1.PID_ATR_PATHWAY,2.REACTOME_MRNA_PROCESSING,3.PID_FANCONI_PATHWAY,
86	1e-06	0.32824	3.04655130392396e-06	0.499998784601875	0	no-related-pathways
87	1e-06	0.340143	2.93993996642589e-06	0.499998827133646	0.688542902332938	1.KEGG_CYTOKINE_CYTOKINE_RECEPTOR_INTERACTION,2.PID_IL6_7PATHWAY,3.REACTOME_CYTOKINE_SIGNALING_IN_IMMUNE_SYSTEM,
89	1e-06	0.363026	2.75462363577264e-06	0.499998901064165	0.65063428778543	1.PID_ATF2_PATHWAY,
90	1e-06	0.360901	2.77084297355785e-06	0.499998894593585	0.600345487075082	1.KEGG_CYTOKINE_CYTOKINE_RECEPTOR_INTERACTION,
96	1e-06	0.350523	2.85287983955404e-06	0.499998861865611	0	no-related-pathways
97	1e-06	0.311051	3.21490688022221e-06	0.499998717437718	0.576820560946585	1.REACTOME_MRNA_PROCESSING,2.REACTOME_CLASS_I_MHC_MEDIATED_ANTIGEN_PROCESSING_PRESENTATION,3.REACTOME_TOLL_RECEPTOR_CASCADES,
98	1e-06	0.348609	2.86854326767238e-06	0.499998855616807	0.585652250974832	1.REACTOME_CLASS_I_MHC_MEDIATED_ANTIGEN_PROCESSING_PRESENTATION,2.REACTOME_METABOLISM_OF_MRNA,
100	1e-06	0.354779	2.81865612113457e-06	0.499998875518899	0.796280705229794	1.KEGG_ECM_RECEPTOR_INTERACTION,2.REACTOME_AXON_GUIDANCE,3.REACTOME_RESPONSE_TO_ELEVATED_PLATELET_CYTOSOLIC_CA2_,
104	1e-06	0.340612	2.93589186523082e-06	0.499998828748604	0.744576835139506	1.REACTOME_HIV_INFECTION,2.REACTOME_GLUCOSE_METABOLISM,3.REACTOME_CYTOKINE_SIGNALING_IN_IMMUNE_SYSTEM,
105	1e-06	0.347714	2.87592676740079e-06	0.499998852671217	0	no-related-pathways
109	1e-06	0.315685	3.16771465226412e-06	0.499998736264693	0.968322944138096	1.REACTOME_METABOLISM_OF_PROTEINS,2.KEGG_CYTOKINE_CYTOKINE_RECEPTOR_INTERACTION,3.REACTOME_GLYCOSAMINOGLYCAN_METABOLISM,
